
T10738 000:083 SEGGER J-Link V6.14a Log File (0001ms, 0031ms total)
T10738 000:083 DLL Compiled: Feb 27 2017 18:41:26 (0001ms, 0031ms total)
T10738 000:083 Logging started @ 2022-01-18 16:49 (0001ms, 0031ms total)
T10738 000:084 JLINK_SetWarnOutHandler(...) (0000ms, 0031ms total)
T10738 000:084 JLINK_OpenEx(...)
Firmware: J-Link V9 compiled Jun  2 2222 22:22:22
Hardware: V9.40
S/N: 59401308
Feature(s): GDB, RDI, FlashBP, FlashDL, JFlash, RDDIWEBSRV Webserver running on local port 19080 (0018ms, 0049ms total)
T10738 000:084   returns O.K. (0018ms, 0049ms total)
T10738 000:102 JLINK_SetErrorOutHandler(...) (0000ms, 0049ms total)
T10738 000:102 JLINK_ExecCommand("ProjectFile = "K:\0-整理\5-专业知识\2-ARM\1-STM32F103_Code\1-HAL库\module_test\0-Keil-HAL库模块\JLinkSettings.ini"", ...). E:\3-embed\MDK-ARM\JLink_V614a\JLinkDevices.xml evaluated successfully.Device "CORTEX-M3" selected.  returns 0x00 (0103ms, 0152ms total)
T10738 000:210 JLINK_ExecCommand("Device = STM32F103ZE", ...). Device "STM32F103ZE" selected.  returns 0x00 (0006ms, 0158ms total)
T10738 000:216 JLINK_ExecCommand("DisableConnectionTimeout", ...).   returns 0x01 (0000ms, 0158ms total)
T10738 000:216 JLINK_GetHardwareVersion()  returns 0x16F30 (0000ms, 0158ms total)
T10738 000:216 JLINK_GetDLLVersion()  returns 61401 (0000ms, 0158ms total)
T10738 000:216 JLINK_GetFirmwareString(...) (0000ms, 0158ms total)
T10738 000:235 JLINK_GetDLLVersion()  returns 61401 (0000ms, 0158ms total)
T10738 000:235 JLINK_GetCompileDateTime() (0000ms, 0158ms total)
T10738 000:239 JLINK_GetFirmwareString(...) (0000ms, 0158ms total)
T10738 000:245 JLINK_GetHardwareVersion()  returns 0x16F30 (0000ms, 0158ms total)
T10738 000:267 JLINK_TIF_Select(JLINKARM_TIF_JTAG)  returns 0x00 (0001ms, 0159ms total)
T10738 000:268 JLINK_SetSpeed(25000) (0000ms, 0159ms total)
T10738 000:268 JLINK_GetIdData(...) >0x2F8 JTAG>TotalIRLen = 9, IRPrint = 0x0011 >0x30 JTAG> >0x410 JTAG> >0x40 JTAG> >0x40 JTAG> >0x40 JTAG> >0x30 JTAG> >0x40 JTAG> >0x40 JTAG> >0x40 JTAG> >0x40 JTAG> >0x40 JTAG> >0x40 JTAG> >0x40 JTAG> >0x40 JTAG> >0x40 JTAG> >0x40 JTAG> >0x40 JTAG> >0x40 JTAG> >0x40 JTAG> >0x40 JTAG> >0x40 JTAG> >0x40 JTAG> >0x40 JTAG> >0x40 JTAG> >0x40 JTAG> >0x40 JTAG> >0x40 JTAG> >0x40 JTAG> >0x40 JTAG> >0x2F8 JTAG>TotalIRLen = 9, IRPrint = 0x0011 >0x30 JTAG> >0x410 JTAG>
 >0x70 JTAG> >0x50 JTAG> >0x40 JTAG> >0x50 JTAG>AP-IDR: 0x14770011, Type: AHB-APAHB-AP ROM: 0xE00FF000 (Base addr. of first ROM table) >0x80 JTAG> >0x40 JTAG> >0x30 JTAG> >0x40 JTAG> >0x40 JTAG> >0x30 JTAG> >0x40 JTAG> >0x50 JTAG>Found Cortex-M3 r1p1, Little endian. -- CPU_ReadMem(4 bytes @ 0xE000EDF0) -- CPU_WriteMem(4 bytes @ 0xE000EDF0) -- CPU_ReadMem(4 bytes @ 0xE0002000)FPUnit: 6 code (BP) slots and 2 literal slots -- CPU_ReadMem(4 bytes @ 0xE000EDFC) -- CPU_WriteMem(4 bytes @ 0xE000EDFC)
 -- CPU_ReadMem(4 bytes @ 0xE0001000) -- CPU_WriteMem(4 bytes @ 0xE0001000) -- CPU_ReadMem(4 bytes @ 0xE000ED88) -- CPU_WriteMem(4 bytes @ 0xE000ED88) -- CPU_ReadMem(4 bytes @ 0xE000ED88) -- CPU_WriteMem(4 bytes @ 0xE000ED88)CoreSight components:ROMTbl 0 @ E00FF000 -- CPU_ReadMem(16 bytes @ 0xE00FF000) -- CPU_ReadMem(16 bytes @ 0xE000EFF0) -- CPU_ReadMem(16 bytes @ 0xE000EFE0)ROMTbl 0 [0]: FFF0F000, CID: B105E00D, PID: 001BB000 SCS -- CPU_ReadMem(16 bytes @ 0xE0001FF0)
 -- CPU_ReadMem(16 bytes @ 0xE0001FE0)ROMTbl 0 [1]: FFF02000, CID: B105E00D, PID: 001BB002 DWT -- CPU_ReadMem(16 bytes @ 0xE0002FF0) -- CPU_ReadMem(16 bytes @ 0xE0002FE0)ROMTbl 0 [2]: FFF03000, CID: B105E00D, PID: 000BB003 FPB -- CPU_ReadMem(16 bytes @ 0xE0000FF0) -- CPU_ReadMem(16 bytes @ 0xE0000FE0)ROMTbl 0 [3]: FFF01000, CID: B105E00D, PID: 001BB001 ITM -- CPU_ReadMem(16 bytes @ 0xE00FF010) -- CPU_ReadMem(16 bytes @ 0xE0040FF0) -- CPU_ReadMem(16 bytes @ 0xE0040FE0)
ROMTbl 0 [4]: FFF41000, CID: B105900D, PID: 001BB923 TPIU-Lite -- CPU_ReadMem(16 bytes @ 0xE0041FF0) -- CPU_ReadMem(16 bytes @ 0xE0041FE0)ROMTbl 0 [5]: FFF42000, CID: B105900D, PID: 101BB924 ETM-M3 ScanLen=9 NumDevices=2 aId[0]=0x3BA00477 aIrRead[0]=0 aScanLen[0]=0 aScanRead[0]=0 (0096ms, 0255ms total)
T10738 000:364 JLINK_JTAG_GetDeviceID(DeviceIndex = 0)  returns 0x3BA00477 (0000ms, 0255ms total)
T10738 000:364 JLINK_JTAG_GetDeviceInfo(DeviceIndex = 0)  returns 0x00 (0001ms, 0256ms total)
T10738 000:365 JLINK_JTAG_GetDeviceID(DeviceIndex = 1)  returns 0x6414041 (0000ms, 0256ms total)
T10738 000:365 JLINK_JTAG_GetDeviceInfo(DeviceIndex = 1)  returns 0x00 (0000ms, 0256ms total)
T10738 000:365 JLINK_GetDLLVersion()  returns 61401 (0000ms, 0256ms total)
T10738 000:365 JLINK_CORE_GetFound()  returns 0x30000FF (0000ms, 0256ms total)
T10738 000:365 JLINK_GetDebugInfo(0x100 = JLINKARM_ROM_TABLE_ADDR_INDEX) -- Value=0xE00FF000  returns 0x00 (0000ms, 0256ms total)
T10738 000:369 JLINK_GetDebugInfo(0x100 = JLINKARM_ROM_TABLE_ADDR_INDEX) -- Value=0xE00FF000  returns 0x00 (0000ms, 0256ms total)
T10738 000:369 JLINK_GetDebugInfo(0x101 = JLINKARM_DEBUG_INFO_ETM_ADDR_INDEX) -- Value=0xE0041000  returns 0x00 (0000ms, 0256ms total)
T10738 000:369 JLINK_GetDebugInfo(0x102 = JLINKARM_DEBUG_INFO_MTB_ADDR_INDEX) -- Value=0x00000000  returns 0x00 (0000ms, 0256ms total)
T10738 000:369 JLINK_GetDebugInfo(0x103 = JLINKARM_DEBUG_INFO_TPIU_ADDR_INDEX) -- Value=0xE0040000  returns 0x00 (0000ms, 0256ms total)
T10738 000:369 JLINK_GetDebugInfo(0x104 = JLINKARM_DEBUG_INFO_ITM_ADDR_INDEX) -- Value=0xE0000000  returns 0x00 (0000ms, 0256ms total)
T10738 000:369 JLINK_GetDebugInfo(0x105 = JLINKARM_DEBUG_INFO_DWT_ADDR_INDEX) -- Value=0xE0001000  returns 0x00 (0000ms, 0256ms total)
T10738 000:369 JLINK_GetDebugInfo(0x106 = JLINKARM_DEBUG_INFO_FPB_ADDR_INDEX) -- Value=0xE0002000  returns 0x00 (0000ms, 0256ms total)
T10738 000:369 JLINK_GetDebugInfo(0x107 = JLINKARM_DEBUG_INFO_NVIC_ADDR_INDEX) -- Value=0xE000E000  returns 0x00 (0000ms, 0256ms total)
T10738 000:369 JLINK_GetDebugInfo(0x10C = JLINKARM_DEBUG_INFO_DBG_ADDR_INDEX) -- Value=0xE000EDF0  returns 0x00 (0000ms, 0256ms total)
T10738 000:369 JLINK_ReadMemU32(0xE000ED00, 0x0001 Items, ...) -- CPU is running -- CPU_ReadMem(4 bytes @ 0xE000ED00) - Data: 31 C2 1F 41  returns 0x01 (0000ms, 0256ms total)
T10738 000:369 JLINK_SetResetType(JLINKARM_CM3_RESET_TYPE_NORMAL)  returns JLINKARM_CM3_RESET_TYPE_NORMAL (0000ms, 0256ms total)
T10738 000:369 JLINK_Reset() -- CPU is running -- CPU_WriteMem(4 bytes @ 0xE000EDF0) -- CPU is running -- CPU_WriteMem(4 bytes @ 0xE000EDFC) -- CPU is running -- CPU_WriteMem(4 bytes @ 0xE000ED0C) -- CPU is running -- CPU_ReadMem(4 bytes @ 0xE000EDF0) -- CPU is running -- CPU_ReadMem(4 bytes @ 0xE000EDF0) -- CPU is running -- CPU_WriteMem(4 bytes @ 0xE000EDF0) -- CPU is running -- CPU_WriteMem(4 bytes @ 0xE000EDFC) -- CPU is running -- CPU_ReadMem(4 bytes @ 0xE000EDF0) >0x80 JTAG> >0x40 JTAG> >0x30 JTAG>
 >0x40 JTAG> >0x50 JTAG> >0x40 JTAG> -- CPU_WriteMem(4 bytes @ 0xE000EDFC) -- CPU_WriteMem(4 bytes @ 0xE0001028) -- CPU_WriteMem(4 bytes @ 0xE0001038) -- CPU_WriteMem(4 bytes @ 0xE0001048) -- CPU_WriteMem(4 bytes @ 0xE0001058) -- CPU_WriteMem(4 bytes @ 0xE0002000) -- CPU_ReadMem(4 bytes @ 0xE000EDFC) -- CPU_ReadMem(4 bytes @ 0xE0001000) (0022ms, 0278ms total)
T10738 000:391 JLINK_Halt()  returns 0x00 (0000ms, 0278ms total)
T10738 000:391 JLINK_IsHalted()  returns TRUE (0000ms, 0278ms total)
T10738 000:391 JLINK_ReadMemU32(0xE000EDF0, 0x0001 Items, ...) -- CPU_ReadMem(4 bytes @ 0xE000EDF0) - Data: 03 00 03 00  returns 0x01 (0001ms, 0279ms total)
T10738 000:392 JLINK_WriteU32(0xE000EDF0, 0xA05F0003) -- CPU_WriteMem(4 bytes @ 0xE000EDF0)  returns 0x00 (0000ms, 0279ms total)
T10738 000:392 JLINK_WriteU32(0xE000EDFC, 0x01000000) -- CPU_WriteMem(4 bytes @ 0xE000EDFC)  returns 0x00 (0000ms, 0279ms total)
T10738 000:413 JLINK_GetHWStatus(...)  returns 0x00 (0000ms, 0279ms total)
T10738 000:427 JLINK_GetNumBPUnits(Type = 0xFFFFFF00)  returns 0x06 (0000ms, 0279ms total)
T10738 000:427 JLINK_GetNumBPUnits(Type = 0xF0)  returns 0x2000 (0000ms, 0279ms total)
T10738 000:427 JLINK_GetNumWPUnits()  returns 0x04 (0000ms, 0279ms total)
T10738 000:441 JLINK_GetSpeed()  returns 0x3A98 (0000ms, 0279ms total)
T10738 000:449 JLINK_ReadMemU32(0xE000E004, 0x0001 Items, ...) -- CPU_ReadMem(4 bytes @ 0xE000E004) - Data: 01 00 00 00  returns 0x01 (0001ms, 0280ms total)
T10738 000:450 JLINK_ReadMemU32(0xE000E004, 0x0001 Items, ...) -- CPU_ReadMem(4 bytes @ 0xE000E004) - Data: 01 00 00 00  returns 0x01 (0000ms, 0280ms total)
T10738 000:450 JLINK_WriteMem(0xE0001000, 0x001C Bytes, ...) - Data: 01 00 00 00 00 00 00 00 00 00 00 00 00 00 00 00 ... -- CPU_WriteMem(28 bytes @ 0xE0001000)  returns 0x1C (0001ms, 0281ms total)
T10738 000:451 JLINK_ReadMem (0xE0001000, 0x001C Bytes, ...) -- CPU_ReadMem(28 bytes @ 0xE0001000) - Data: 01 00 00 40 00 00 00 00 00 00 00 00 00 00 00 00 ...  returns 0x00 (0000ms, 0281ms total)
T10738 000:451 JLINK_Halt()  returns 0x00 (0000ms, 0281ms total)
T10738 000:451 JLINK_IsHalted()  returns TRUE (0000ms, 0281ms total)
T10738 000:456 JLINK_WriteMem(0x20000000, 0x0164 Bytes, ...) - Data: 00 BE 0A E0 0D 78 2D 06 68 40 08 24 40 00 00 D3 ... -- CPU_WriteMem(356 bytes @ 0x20000000)  returns 0x164 (0002ms, 0283ms total)
T10738 000:458 JLINK_WriteReg(R0, 0x08000000)  returns 0x00 (0000ms, 0283ms total)
T10738 000:458 JLINK_WriteReg(R1, 0x00B71B00)  returns 0x00 (0000ms, 0283ms total)
T10738 000:458 JLINK_WriteReg(R2, 0x00000001)  returns 0x00 (0000ms, 0283ms total)
T10738 000:458 JLINK_WriteReg(R3, 0x00000000)  returns 0x00 (0000ms, 0283ms total)
T10738 000:458 JLINK_WriteReg(R4, 0x00000000)  returns 0x00 (0000ms, 0283ms total)
T10738 000:458 JLINK_WriteReg(R5, 0x00000000)  returns 0x00 (0000ms, 0283ms total)
T10738 000:458 JLINK_WriteReg(R6, 0x00000000)  returns 0x00 (0000ms, 0283ms total)
T10738 000:458 JLINK_WriteReg(R7, 0x00000000)  returns 0x00 (0000ms, 0283ms total)
T10738 000:458 JLINK_WriteReg(R8, 0x00000000)  returns 0x00 (0000ms, 0283ms total)
T10738 000:458 JLINK_WriteReg(R9, 0x20000160)  returns 0x00 (0000ms, 0283ms total)
T10738 000:458 JLINK_WriteReg(R10, 0x00000000)  returns 0x00 (0000ms, 0283ms total)
T10738 000:458 JLINK_WriteReg(R11, 0x00000000)  returns 0x00 (0000ms, 0283ms total)
T10738 000:458 JLINK_WriteReg(R12, 0x00000000)  returns 0x00 (0000ms, 0283ms total)
T10738 000:458 JLINK_WriteReg(R13 (SP), 0x20001000)  returns 0x00 (0000ms, 0283ms total)
T10738 000:458 JLINK_WriteReg(R14, 0x20000001)  returns 0x00 (0000ms, 0283ms total)
T10738 000:458 JLINK_WriteReg(R15 (PC), 0x20000038)  returns 0x00 (0000ms, 0283ms total)
T10738 000:458 JLINK_WriteReg(XPSR, 0x01000000)  returns 0x00 (0000ms, 0283ms total)
T10738 000:458 JLINK_WriteReg(MSP, 0x20001000)  returns 0x00 (0000ms, 0283ms total)
T10738 000:458 JLINK_WriteReg(PSP, 0x20001000)  returns 0x00 (0000ms, 0283ms total)
T10738 000:458 JLINK_WriteReg(CFBP, 0x00000000)  returns 0x00 (0000ms, 0283ms total)
T10738 000:458 JLINK_SetBPEx(Addr = 0x20000000, Type = 0xFFFFFFF2) -- CPU_ReadMem(2 bytes @ 0x20000000)  returns 0x00000001 (0000ms, 0283ms total)
T10738 000:458 JLINK_Go() -- CPU_WriteMem(2 bytes @ 0x20000000) -- CPU_ReadMem(4 bytes @ 0xE0001000) -- CPU_WriteMem(4 bytes @ 0xE0002008) -- CPU_WriteMem(4 bytes @ 0xE000200C) -- CPU_WriteMem(4 bytes @ 0xE0002010) -- CPU_WriteMem(4 bytes @ 0xE0002014) -- CPU_WriteMem(4 bytes @ 0xE0002018) -- CPU_WriteMem(4 bytes @ 0xE000201C) -- CPU_WriteMem(4 bytes @ 0xE0001004) (0003ms, 0286ms total)
T10738 000:461 JLINK_IsHalted() -- CPU_ReadMem(2 bytes @ 0x20000000)  returns TRUE (0002ms, 0288ms total)
T10738 000:463 JLINK_ReadReg(R15 (PC))  returns 0x20000000 (0000ms, 0286ms total)
T10738 000:463 JLINK_ClrBPEx(BPHandle = 0x00000001)  returns 0x00 (0000ms, 0286ms total)
T10738 000:463 JLINK_ReadReg(R0)  returns 0x00000000 (0000ms, 0286ms total)
T10738 000:463 JLINK_WriteReg(R0, 0x08000000)  returns 0x00 (0000ms, 0286ms total)
T10738 000:463 JLINK_WriteReg(R1, 0x00B71B00)  returns 0x00 (0000ms, 0286ms total)
T10738 000:463 JLINK_WriteReg(R2, 0x00000001)  returns 0x00 (0000ms, 0286ms total)
T10738 000:463 JLINK_WriteReg(R3, 0x00000000)  returns 0x00 (0000ms, 0286ms total)
T10738 000:463 JLINK_WriteReg(R4, 0x00000000)  returns 0x00 (0000ms, 0286ms total)
T10738 000:463 JLINK_WriteReg(R5, 0x00000000)  returns 0x00 (0000ms, 0286ms total)
T10738 000:463 JLINK_WriteReg(R6, 0x00000000)  returns 0x00 (0000ms, 0286ms total)
T10738 000:463 JLINK_WriteReg(R7, 0x00000000)  returns 0x00 (0000ms, 0286ms total)
T10738 000:463 JLINK_WriteReg(R8, 0x00000000)  returns 0x00 (0000ms, 0286ms total)
T10738 000:463 JLINK_WriteReg(R9, 0x20000160)  returns 0x00 (0000ms, 0286ms total)
T10738 000:463 JLINK_WriteReg(R10, 0x00000000)  returns 0x00 (0000ms, 0286ms total)
T10738 000:463 JLINK_WriteReg(R11, 0x00000000)  returns 0x00 (0000ms, 0286ms total)
T10738 000:463 JLINK_WriteReg(R12, 0x00000000)  returns 0x00 (0000ms, 0286ms total)
T10738 000:463 JLINK_WriteReg(R13 (SP), 0x20001000)  returns 0x00 (0000ms, 0286ms total)
T10738 000:463 JLINK_WriteReg(R14, 0x20000001)  returns 0x00 (0000ms, 0286ms total)
T10738 000:463 JLINK_WriteReg(R15 (PC), 0x2000007C)  returns 0x00 (0000ms, 0286ms total)
T10738 000:463 JLINK_WriteReg(XPSR, 0x01000000)  returns 0x00 (0000ms, 0286ms total)
T10738 000:463 JLINK_WriteReg(MSP, 0x20001000)  returns 0x00 (0000ms, 0286ms total)
T10738 000:463 JLINK_WriteReg(PSP, 0x20001000)  returns 0x00 (0000ms, 0286ms total)
T10738 000:464 JLINK_WriteReg(CFBP, 0x00000000)  returns 0x00 (0000ms, 0287ms total)
T10738 000:464 JLINK_SetBPEx(Addr = 0x20000000, Type = 0xFFFFFFF2)  returns 0x00000002 (0000ms, 0287ms total)
T10738 000:464 JLINK_Go() -- CPU_ReadMem(4 bytes @ 0xE0001000) (0001ms, 0288ms total)
T10738 000:465 JLINK_IsHalted()  returns FALSE (0000ms, 0288ms total)
T10738 000:546 JLINK_IsHalted() -- CPU_ReadMem(2 bytes @ 0x20000000)  returns TRUE (0001ms, 0289ms total)
T10738 000:547 JLINK_ReadReg(R15 (PC))  returns 0x20000000 (0000ms, 0288ms total)
T10738 000:547 JLINK_ClrBPEx(BPHandle = 0x00000002)  returns 0x00 (0000ms, 0288ms total)
T10738 000:547 JLINK_ReadReg(R0)  returns 0x00000000 (0000ms, 0288ms total)
T10738 000:599 JLINK_WriteReg(R0, 0x00000001)  returns 0x00 (0000ms, 0288ms total)
T10738 000:599 JLINK_WriteReg(R1, 0x00B71B00)  returns 0x00 (0001ms, 0289ms total)
T10738 000:600 JLINK_WriteReg(R2, 0x00000001)  returns 0x00 (0000ms, 0289ms total)
T10738 000:600 JLINK_WriteReg(R3, 0x00000000)  returns 0x00 (0000ms, 0289ms total)
T10738 000:600 JLINK_WriteReg(R4, 0x00000000)  returns 0x00 (0000ms, 0289ms total)
T10738 000:600 JLINK_WriteReg(R5, 0x00000000)  returns 0x00 (0000ms, 0289ms total)
T10738 000:600 JLINK_WriteReg(R6, 0x00000000)  returns 0x00 (0000ms, 0289ms total)
T10738 000:600 JLINK_WriteReg(R7, 0x00000000)  returns 0x00 (0000ms, 0289ms total)
T10738 000:600 JLINK_WriteReg(R8, 0x00000000)  returns 0x00 (0000ms, 0289ms total)
T10738 000:600 JLINK_WriteReg(R9, 0x20000160)  returns 0x00 (0000ms, 0289ms total)
T10738 000:600 JLINK_WriteReg(R10, 0x00000000)  returns 0x00 (0000ms, 0289ms total)
T10738 000:600 JLINK_WriteReg(R11, 0x00000000)  returns 0x00 (0000ms, 0289ms total)
T10738 000:600 JLINK_WriteReg(R12, 0x00000000)  returns 0x00 (0000ms, 0289ms total)
T10738 000:600 JLINK_WriteReg(R13 (SP), 0x20001000)  returns 0x00 (0000ms, 0289ms total)
T10738 000:600 JLINK_WriteReg(R14, 0x20000001)  returns 0x00 (0000ms, 0289ms total)
T10738 000:600 JLINK_WriteReg(R15 (PC), 0x2000006A)  returns 0x00 (0000ms, 0289ms total)
T10738 000:600 JLINK_WriteReg(XPSR, 0x01000000)  returns 0x00 (0000ms, 0289ms total)
T10738 000:600 JLINK_WriteReg(MSP, 0x20001000)  returns 0x00 (0000ms, 0289ms total)
T10738 000:600 JLINK_WriteReg(PSP, 0x20001000)  returns 0x00 (0000ms, 0289ms total)
T10738 000:600 JLINK_WriteReg(CFBP, 0x00000000)  returns 0x00 (0000ms, 0289ms total)
T10738 000:600 JLINK_SetBPEx(Addr = 0x20000000, Type = 0xFFFFFFF2)  returns 0x00000003 (0000ms, 0289ms total)
T10738 000:600 JLINK_Go() -- CPU_ReadMem(4 bytes @ 0xE0001000) (0001ms, 0290ms total)
T10738 000:601 JLINK_IsHalted() -- CPU_ReadMem(2 bytes @ 0x20000000)  returns TRUE (0001ms, 0291ms total)
T10738 000:603 JLINK_ReadReg(R15 (PC))  returns 0x20000000 (0000ms, 0290ms total)
T10738 000:603 JLINK_ClrBPEx(BPHandle = 0x00000003)  returns 0x00 (0000ms, 0290ms total)
T10738 000:603 JLINK_ReadReg(R0)  returns 0x00000000 (0000ms, 0290ms total)
T10738 000:610 JLINK_WriteMem(0x20000000, 0x0164 Bytes, ...) - Data: 00 BE 0A E0 0D 78 2D 06 68 40 08 24 40 00 00 D3 ... -- CPU_WriteMem(356 bytes @ 0x20000000)  returns 0x164 (0001ms, 0291ms total)
T10738 000:611 JLINK_WriteReg(R0, 0x08000000)  returns 0x00 (0000ms, 0291ms total)
T10738 000:611 JLINK_WriteReg(R1, 0x00B71B00)  returns 0x00 (0000ms, 0291ms total)
T10738 000:611 JLINK_WriteReg(R2, 0x00000002)  returns 0x00 (0000ms, 0291ms total)
T10738 000:611 JLINK_WriteReg(R3, 0x00000000)  returns 0x00 (0000ms, 0291ms total)
T10738 000:611 JLINK_WriteReg(R4, 0x00000000)  returns 0x00 (0000ms, 0291ms total)
T10738 000:611 JLINK_WriteReg(R5, 0x00000000)  returns 0x00 (0000ms, 0291ms total)
T10738 000:611 JLINK_WriteReg(R6, 0x00000000)  returns 0x00 (0000ms, 0291ms total)
T10738 000:611 JLINK_WriteReg(R7, 0x00000000)  returns 0x00 (0000ms, 0291ms total)
T10738 000:611 JLINK_WriteReg(R8, 0x00000000)  returns 0x00 (0000ms, 0291ms total)
T10738 000:611 JLINK_WriteReg(R9, 0x20000160)  returns 0x00 (0000ms, 0291ms total)
T10738 000:611 JLINK_WriteReg(R10, 0x00000000)  returns 0x00 (0000ms, 0291ms total)
T10738 000:611 JLINK_WriteReg(R11, 0x00000000)  returns 0x00 (0000ms, 0291ms total)
T10738 000:611 JLINK_WriteReg(R12, 0x00000000)  returns 0x00 (0000ms, 0291ms total)
T10738 000:611 JLINK_WriteReg(R13 (SP), 0x20001000)  returns 0x00 (0000ms, 0291ms total)
T10738 000:611 JLINK_WriteReg(R14, 0x20000001)  returns 0x00 (0000ms, 0291ms total)
T10738 000:611 JLINK_WriteReg(R15 (PC), 0x20000038)  returns 0x00 (0000ms, 0291ms total)
T10738 000:611 JLINK_WriteReg(XPSR, 0x01000000)  returns 0x00 (0000ms, 0291ms total)
T10738 000:611 JLINK_WriteReg(MSP, 0x20001000)  returns 0x00 (0000ms, 0291ms total)
T10738 000:611 JLINK_WriteReg(PSP, 0x20001000)  returns 0x00 (0000ms, 0291ms total)
T10738 000:611 JLINK_WriteReg(CFBP, 0x00000000)  returns 0x00 (0000ms, 0291ms total)
T10738 000:611 JLINK_SetBPEx(Addr = 0x20000000, Type = 0xFFFFFFF2) -- CPU_ReadMem(2 bytes @ 0x20000000)  returns 0x00000004 (0001ms, 0292ms total)
T10738 000:612 JLINK_Go() -- CPU_WriteMem(2 bytes @ 0x20000000) -- CPU_ReadMem(4 bytes @ 0xE0001000) (0001ms, 0293ms total)
T10738 000:613 JLINK_IsHalted() -- CPU_ReadMem(2 bytes @ 0x20000000)  returns TRUE (0002ms, 0295ms total)
T10738 000:615 JLINK_ReadReg(R15 (PC))  returns 0x20000000 (0000ms, 0293ms total)
T10738 000:615 JLINK_ClrBPEx(BPHandle = 0x00000004)  returns 0x00 (0000ms, 0293ms total)
T10738 000:615 JLINK_ReadReg(R0)  returns 0x00000000 (0000ms, 0293ms total)
T10738 000:615 JLINK_WriteMem(0x20000164, 0x0400 Bytes, ...) - Data: 60 0C 00 20 A9 03 00 08 21 02 00 08 27 02 00 08 ... -- CPU_WriteMem(1024 bytes @ 0x20000164)  returns 0x400 (0003ms, 0296ms total)
T10738 000:618 JLINK_WriteReg(R0, 0x08000000)  returns 0x00 (0000ms, 0296ms total)
T10738 000:618 JLINK_WriteReg(R1, 0x00000400)  returns 0x00 (0000ms, 0296ms total)
T10738 000:618 JLINK_WriteReg(R2, 0x20000164)  returns 0x00 (0000ms, 0296ms total)
T10738 000:618 JLINK_WriteReg(R3, 0x00000000)  returns 0x00 (0000ms, 0296ms total)
T10738 000:618 JLINK_WriteReg(R4, 0x00000000)  returns 0x00 (0000ms, 0296ms total)
T10738 000:618 JLINK_WriteReg(R5, 0x00000000)  returns 0x00 (0000ms, 0296ms total)
T10738 000:618 JLINK_WriteReg(R6, 0x00000000)  returns 0x00 (0000ms, 0296ms total)
T10738 000:618 JLINK_WriteReg(R7, 0x00000000)  returns 0x00 (0000ms, 0296ms total)
T10738 000:618 JLINK_WriteReg(R8, 0x00000000)  returns 0x00 (0000ms, 0296ms total)
T10738 000:618 JLINK_WriteReg(R9, 0x20000160)  returns 0x00 (0000ms, 0296ms total)
T10738 000:618 JLINK_WriteReg(R10, 0x00000000)  returns 0x00 (0000ms, 0296ms total)
T10738 000:618 JLINK_WriteReg(R11, 0x00000000)  returns 0x00 (0000ms, 0296ms total)
T10738 000:618 JLINK_WriteReg(R12, 0x00000000)  returns 0x00 (0000ms, 0296ms total)
T10738 000:618 JLINK_WriteReg(R13 (SP), 0x20001000)  returns 0x00 (0000ms, 0296ms total)
T10738 000:618 JLINK_WriteReg(R14, 0x20000001)  returns 0x00 (0000ms, 0296ms total)
T10738 000:618 JLINK_WriteReg(R15 (PC), 0x200000F4)  returns 0x00 (0000ms, 0296ms total)
T10738 000:618 JLINK_WriteReg(XPSR, 0x01000000)  returns 0x00 (0000ms, 0296ms total)
T10738 000:618 JLINK_WriteReg(MSP, 0x20001000)  returns 0x00 (0000ms, 0296ms total)
T10738 000:618 JLINK_WriteReg(PSP, 0x20001000)  returns 0x00 (0000ms, 0296ms total)
T10738 000:618 JLINK_WriteReg(CFBP, 0x00000000)  returns 0x00 (0000ms, 0296ms total)
T10738 000:618 JLINK_SetBPEx(Addr = 0x20000000, Type = 0xFFFFFFF2)  returns 0x00000005 (0000ms, 0296ms total)
T10738 000:618 JLINK_Go() -- CPU_ReadMem(4 bytes @ 0xE0001000) (0002ms, 0298ms total)
T10738 000:620 JLINK_IsHalted()  returns FALSE (0000ms, 0298ms total)
T10738 000:642 JLINK_IsHalted()  returns FALSE (0000ms, 0298ms total)
T10738 000:644 JLINK_IsHalted()  returns FALSE (0000ms, 0298ms total)
T10738 000:651 JLINK_IsHalted() -- CPU_ReadMem(2 bytes @ 0x20000000)  returns TRUE (0001ms, 0299ms total)
T10738 000:652 JLINK_ReadReg(R15 (PC))  returns 0x20000000 (0000ms, 0298ms total)
T10738 000:652 JLINK_ClrBPEx(BPHandle = 0x00000005)  returns 0x00 (0000ms, 0298ms total)
T10738 000:652 JLINK_ReadReg(R0)  returns 0x00000000 (0000ms, 0298ms total)
T10738 000:653 JLINK_WriteMem(0x20000164, 0x0400 Bytes, ...) - Data: 01 20 70 BD 4B 48 10 B5 01 68 41 F0 10 01 01 60 ... -- CPU_WriteMem(1024 bytes @ 0x20000164)  returns 0x400 (0003ms, 0301ms total)
T10738 000:656 JLINK_WriteReg(R0, 0x08000400)  returns 0x00 (0000ms, 0301ms total)
T10738 000:656 JLINK_WriteReg(R1, 0x00000400)  returns 0x00 (0000ms, 0301ms total)
T10738 000:656 JLINK_WriteReg(R2, 0x20000164)  returns 0x00 (0000ms, 0301ms total)
T10738 000:656 JLINK_WriteReg(R3, 0x00000000)  returns 0x00 (0000ms, 0301ms total)
T10738 000:656 JLINK_WriteReg(R4, 0x00000000)  returns 0x00 (0000ms, 0301ms total)
T10738 000:656 JLINK_WriteReg(R5, 0x00000000)  returns 0x00 (0000ms, 0301ms total)
T10738 000:656 JLINK_WriteReg(R6, 0x00000000)  returns 0x00 (0000ms, 0301ms total)
T10738 000:656 JLINK_WriteReg(R7, 0x00000000)  returns 0x00 (0000ms, 0301ms total)
T10738 000:656 JLINK_WriteReg(R8, 0x00000000)  returns 0x00 (0000ms, 0301ms total)
T10738 000:656 JLINK_WriteReg(R9, 0x20000160)  returns 0x00 (0000ms, 0301ms total)
T10738 000:656 JLINK_WriteReg(R10, 0x00000000)  returns 0x00 (0000ms, 0301ms total)
T10738 000:656 JLINK_WriteReg(R11, 0x00000000)  returns 0x00 (0000ms, 0301ms total)
T10738 000:656 JLINK_WriteReg(R12, 0x00000000)  returns 0x00 (0000ms, 0301ms total)
T10738 000:656 JLINK_WriteReg(R13 (SP), 0x20001000)  returns 0x00 (0000ms, 0301ms total)
T10738 000:656 JLINK_WriteReg(R14, 0x20000001)  returns 0x00 (0000ms, 0301ms total)
T10738 000:656 JLINK_WriteReg(R15 (PC), 0x200000F4)  returns 0x00 (0000ms, 0301ms total)
T10738 000:656 JLINK_WriteReg(XPSR, 0x01000000)  returns 0x00 (0000ms, 0301ms total)
T10738 000:656 JLINK_WriteReg(MSP, 0x20001000)  returns 0x00 (0000ms, 0301ms total)
T10738 000:656 JLINK_WriteReg(PSP, 0x20001000)  returns 0x00 (0000ms, 0301ms total)
T10738 000:656 JLINK_WriteReg(CFBP, 0x00000000)  returns 0x00 (0000ms, 0301ms total)
T10738 000:656 JLINK_SetBPEx(Addr = 0x20000000, Type = 0xFFFFFFF2)  returns 0x00000006 (0000ms, 0301ms total)
T10738 000:656 JLINK_Go() -- CPU_ReadMem(4 bytes @ 0xE0001000) (0001ms, 0302ms total)
T10738 000:657 JLINK_IsHalted()  returns FALSE (0001ms, 0303ms total)
T10738 000:660 JLINK_IsHalted()  returns FALSE (0000ms, 0302ms total)
T10738 000:662 JLINK_IsHalted()  returns FALSE (0000ms, 0302ms total)
T10738 000:669 JLINK_IsHalted()  returns FALSE (0000ms, 0302ms total)
T10738 000:671 JLINK_IsHalted()  returns FALSE (0000ms, 0302ms total)
T10738 000:673 JLINK_IsHalted()  returns FALSE (0000ms, 0302ms total)
T10738 000:675 JLINK_IsHalted()  returns FALSE (0000ms, 0302ms total)
T10738 000:676 JLINK_IsHalted()  returns FALSE (0000ms, 0302ms total)
T10738 000:685 JLINK_IsHalted()  returns FALSE (0000ms, 0302ms total)
T10738 000:687 JLINK_IsHalted()  returns FALSE (0000ms, 0302ms total)
T10738 000:689 JLINK_IsHalted() -- CPU_ReadMem(2 bytes @ 0x20000000)  returns TRUE (0001ms, 0303ms total)
T10738 000:690 JLINK_ReadReg(R15 (PC))  returns 0x20000000 (0000ms, 0302ms total)
T10738 000:690 JLINK_ClrBPEx(BPHandle = 0x00000006)  returns 0x00 (0000ms, 0302ms total)
T10738 000:690 JLINK_ReadReg(R0)  returns 0x00000000 (0000ms, 0302ms total)
T10738 000:690 JLINK_WriteMem(0x20000164, 0x0400 Bytes, ...) - Data: FF F7 24 FE 05 46 0D E0 FF F7 20 FE 40 1B 0A 28 ... -- CPU_WriteMem(1024 bytes @ 0x20000164)  returns 0x400 (0003ms, 0305ms total)
T10738 000:693 JLINK_WriteReg(R0, 0x08000800)  returns 0x00 (0000ms, 0305ms total)
T10738 000:693 JLINK_WriteReg(R1, 0x00000400)  returns 0x00 (0000ms, 0305ms total)
T10738 000:693 JLINK_WriteReg(R2, 0x20000164)  returns 0x00 (0000ms, 0305ms total)
T10738 000:693 JLINK_WriteReg(R3, 0x00000000)  returns 0x00 (0000ms, 0305ms total)
T10738 000:693 JLINK_WriteReg(R4, 0x00000000)  returns 0x00 (0000ms, 0305ms total)
T10738 000:693 JLINK_WriteReg(R5, 0x00000000)  returns 0x00 (0000ms, 0305ms total)
T10738 000:693 JLINK_WriteReg(R6, 0x00000000)  returns 0x00 (0000ms, 0305ms total)
T10738 000:693 JLINK_WriteReg(R7, 0x00000000)  returns 0x00 (0000ms, 0305ms total)
T10738 000:693 JLINK_WriteReg(R8, 0x00000000)  returns 0x00 (0000ms, 0305ms total)
T10738 000:693 JLINK_WriteReg(R9, 0x20000160)  returns 0x00 (0000ms, 0305ms total)
T10738 000:693 JLINK_WriteReg(R10, 0x00000000)  returns 0x00 (0000ms, 0305ms total)
T10738 000:693 JLINK_WriteReg(R11, 0x00000000)  returns 0x00 (0000ms, 0305ms total)
T10738 000:693 JLINK_WriteReg(R12, 0x00000000)  returns 0x00 (0000ms, 0305ms total)
T10738 000:693 JLINK_WriteReg(R13 (SP), 0x20001000)  returns 0x00 (0000ms, 0305ms total)
T10738 000:693 JLINK_WriteReg(R14, 0x20000001)  returns 0x00 (0000ms, 0305ms total)
T10738 000:693 JLINK_WriteReg(R15 (PC), 0x200000F4)  returns 0x00 (0000ms, 0305ms total)
T10738 000:693 JLINK_WriteReg(XPSR, 0x01000000)  returns 0x00 (0000ms, 0305ms total)
T10738 000:693 JLINK_WriteReg(MSP, 0x20001000)  returns 0x00 (0000ms, 0305ms total)
T10738 000:693 JLINK_WriteReg(PSP, 0x20001000)  returns 0x00 (0000ms, 0305ms total)
T10738 000:693 JLINK_WriteReg(CFBP, 0x00000000)  returns 0x00 (0000ms, 0305ms total)
T10738 000:693 JLINK_SetBPEx(Addr = 0x20000000, Type = 0xFFFFFFF2)  returns 0x00000007 (0000ms, 0305ms total)
T10738 000:693 JLINK_Go() -- CPU_ReadMem(4 bytes @ 0xE0001000) (0001ms, 0306ms total)
T10738 000:694 JLINK_IsHalted()  returns FALSE (0001ms, 0307ms total)
T10738 000:701 JLINK_IsHalted()  returns FALSE (0000ms, 0306ms total)
T10738 000:710 JLINK_IsHalted()  returns FALSE (0000ms, 0306ms total)
T10738 000:711 JLINK_IsHalted()  returns FALSE (0000ms, 0306ms total)
T10738 000:713 JLINK_IsHalted()  returns FALSE (0000ms, 0306ms total)
T10738 000:715 JLINK_IsHalted()  returns FALSE (0000ms, 0306ms total)
T10738 000:717 JLINK_IsHalted()  returns FALSE (0000ms, 0306ms total)
T10738 000:719 JLINK_IsHalted()  returns FALSE (0000ms, 0306ms total)
T10738 000:721 JLINK_IsHalted()  returns FALSE (0000ms, 0306ms total)
T10738 000:723 JLINK_IsHalted()  returns FALSE (0000ms, 0306ms total)
T10738 000:734 JLINK_IsHalted() -- CPU_ReadMem(2 bytes @ 0x20000000)  returns TRUE (0001ms, 0307ms total)
T10738 000:735 JLINK_ReadReg(R15 (PC))  returns 0x20000000 (0000ms, 0306ms total)
T10738 000:735 JLINK_ClrBPEx(BPHandle = 0x00000007)  returns 0x00 (0000ms, 0306ms total)
T10738 000:735 JLINK_ReadReg(R0)  returns 0x00000000 (0000ms, 0306ms total)
T10738 000:736 JLINK_WriteMem(0x20000164, 0x0400 Bytes, ...) - Data: B8 05 03 D5 28 46 FF F7 CA FF 0C E0 78 05 02 D5 ... -- CPU_WriteMem(1024 bytes @ 0x20000164)  returns 0x400 (0003ms, 0309ms total)
T10738 000:739 JLINK_WriteReg(R0, 0x08000C00)  returns 0x00 (0000ms, 0309ms total)
T10738 000:739 JLINK_WriteReg(R1, 0x00000400)  returns 0x00 (0000ms, 0309ms total)
T10738 000:739 JLINK_WriteReg(R2, 0x20000164)  returns 0x00 (0000ms, 0309ms total)
T10738 000:739 JLINK_WriteReg(R3, 0x00000000)  returns 0x00 (0000ms, 0309ms total)
T10738 000:739 JLINK_WriteReg(R4, 0x00000000)  returns 0x00 (0000ms, 0309ms total)
T10738 000:739 JLINK_WriteReg(R5, 0x00000000)  returns 0x00 (0000ms, 0309ms total)
T10738 000:739 JLINK_WriteReg(R6, 0x00000000)  returns 0x00 (0000ms, 0309ms total)
T10738 000:739 JLINK_WriteReg(R7, 0x00000000)  returns 0x00 (0000ms, 0309ms total)
T10738 000:739 JLINK_WriteReg(R8, 0x00000000)  returns 0x00 (0000ms, 0309ms total)
T10738 000:739 JLINK_WriteReg(R9, 0x20000160)  returns 0x00 (0000ms, 0309ms total)
T10738 000:739 JLINK_WriteReg(R10, 0x00000000)  returns 0x00 (0000ms, 0309ms total)
T10738 000:739 JLINK_WriteReg(R11, 0x00000000)  returns 0x00 (0000ms, 0309ms total)
T10738 000:739 JLINK_WriteReg(R12, 0x00000000)  returns 0x00 (0000ms, 0309ms total)
T10738 000:739 JLINK_WriteReg(R13 (SP), 0x20001000)  returns 0x00 (0000ms, 0309ms total)
T10738 000:739 JLINK_WriteReg(R14, 0x20000001)  returns 0x00 (0000ms, 0309ms total)
T10738 000:739 JLINK_WriteReg(R15 (PC), 0x200000F4)  returns 0x00 (0000ms, 0309ms total)
T10738 000:739 JLINK_WriteReg(XPSR, 0x01000000)  returns 0x00 (0000ms, 0309ms total)
T10738 000:739 JLINK_WriteReg(MSP, 0x20001000)  returns 0x00 (0000ms, 0309ms total)
T10738 000:739 JLINK_WriteReg(PSP, 0x20001000)  returns 0x00 (0000ms, 0309ms total)
T10738 000:739 JLINK_WriteReg(CFBP, 0x00000000)  returns 0x00 (0000ms, 0309ms total)
T10738 000:739 JLINK_SetBPEx(Addr = 0x20000000, Type = 0xFFFFFFF2)  returns 0x00000008 (0000ms, 0309ms total)
T10738 000:739 JLINK_Go() -- CPU_ReadMem(4 bytes @ 0xE0001000) (0001ms, 0310ms total)
T10738 000:740 JLINK_IsHalted()  returns FALSE (0001ms, 0311ms total)
T10738 000:746 JLINK_IsHalted()  returns FALSE (0000ms, 0310ms total)
T10738 000:752 JLINK_IsHalted()  returns FALSE (0000ms, 0310ms total)
T10738 000:754 JLINK_IsHalted()  returns FALSE (0000ms, 0310ms total)
T10738 000:756 JLINK_IsHalted()  returns FALSE (0000ms, 0310ms total)
T10738 000:758 JLINK_IsHalted()  returns FALSE (0000ms, 0310ms total)
T10738 000:760 JLINK_IsHalted()  returns FALSE (0000ms, 0310ms total)
T10738 000:762 JLINK_IsHalted()  returns FALSE (0000ms, 0310ms total)
T10738 000:769 JLINK_IsHalted()  returns FALSE (0000ms, 0310ms total)
T10738 000:771 JLINK_IsHalted()  returns FALSE (0000ms, 0310ms total)
T10738 000:773 JLINK_IsHalted() -- CPU_ReadMem(2 bytes @ 0x20000000)  returns TRUE (0001ms, 0311ms total)
T10738 000:774 JLINK_ReadReg(R15 (PC))  returns 0x20000000 (0000ms, 0310ms total)
T10738 000:774 JLINK_ClrBPEx(BPHandle = 0x00000008)  returns 0x00 (0000ms, 0310ms total)
T10738 000:774 JLINK_ReadReg(R0)  returns 0x00000000 (0000ms, 0310ms total)
T10738 000:775 JLINK_WriteMem(0x20000164, 0x0400 Bytes, ...) - Data: F2 F2 92 00 02 64 F4 4A 0A E0 01 20 30 BD F0 4B ... -- CPU_WriteMem(1024 bytes @ 0x20000164)  returns 0x400 (0003ms, 0313ms total)
T10738 000:778 JLINK_WriteReg(R0, 0x08001000)  returns 0x00 (0000ms, 0313ms total)
T10738 000:778 JLINK_WriteReg(R1, 0x00000400)  returns 0x00 (0000ms, 0313ms total)
T10738 000:778 JLINK_WriteReg(R2, 0x20000164)  returns 0x00 (0000ms, 0313ms total)
T10738 000:778 JLINK_WriteReg(R3, 0x00000000)  returns 0x00 (0000ms, 0313ms total)
T10738 000:778 JLINK_WriteReg(R4, 0x00000000)  returns 0x00 (0000ms, 0313ms total)
T10738 000:778 JLINK_WriteReg(R5, 0x00000000)  returns 0x00 (0000ms, 0313ms total)
T10738 000:778 JLINK_WriteReg(R6, 0x00000000)  returns 0x00 (0000ms, 0313ms total)
T10738 000:778 JLINK_WriteReg(R7, 0x00000000)  returns 0x00 (0000ms, 0313ms total)
T10738 000:778 JLINK_WriteReg(R8, 0x00000000)  returns 0x00 (0000ms, 0313ms total)
T10738 000:778 JLINK_WriteReg(R9, 0x20000160)  returns 0x00 (0000ms, 0313ms total)
T10738 000:778 JLINK_WriteReg(R10, 0x00000000)  returns 0x00 (0000ms, 0313ms total)
T10738 000:778 JLINK_WriteReg(R11, 0x00000000)  returns 0x00 (0000ms, 0313ms total)
T10738 000:778 JLINK_WriteReg(R12, 0x00000000)  returns 0x00 (0000ms, 0313ms total)
T10738 000:778 JLINK_WriteReg(R13 (SP), 0x20001000)  returns 0x00 (0000ms, 0313ms total)
T10738 000:778 JLINK_WriteReg(R14, 0x20000001)  returns 0x00 (0000ms, 0313ms total)
T10738 000:778 JLINK_WriteReg(R15 (PC), 0x200000F4)  returns 0x00 (0000ms, 0313ms total)
T10738 000:778 JLINK_WriteReg(XPSR, 0x01000000)  returns 0x00 (0000ms, 0313ms total)
T10738 000:778 JLINK_WriteReg(MSP, 0x20001000)  returns 0x00 (0000ms, 0313ms total)
T10738 000:778 JLINK_WriteReg(PSP, 0x20001000)  returns 0x00 (0000ms, 0313ms total)
T10738 000:778 JLINK_WriteReg(CFBP, 0x00000000)  returns 0x00 (0000ms, 0313ms total)
T10738 000:778 JLINK_SetBPEx(Addr = 0x20000000, Type = 0xFFFFFFF2)  returns 0x00000009 (0000ms, 0313ms total)
T10738 000:778 JLINK_Go() -- CPU_ReadMem(4 bytes @ 0xE0001000) (0002ms, 0315ms total)
T10738 000:780 JLINK_IsHalted()  returns FALSE (0000ms, 0315ms total)
T10738 000:786 JLINK_IsHalted()  returns FALSE (0000ms, 0315ms total)
T10738 000:788 JLINK_IsHalted()  returns FALSE (0000ms, 0315ms total)
T10738 000:790 JLINK_IsHalted()  returns FALSE (0000ms, 0315ms total)
T10738 000:792 JLINK_IsHalted()  returns FALSE (0000ms, 0315ms total)
T10738 000:794 JLINK_IsHalted()  returns FALSE (0000ms, 0315ms total)
T10738 000:802 JLINK_IsHalted()  returns FALSE (0000ms, 0315ms total)
T10738 000:804 JLINK_IsHalted()  returns FALSE (0000ms, 0315ms total)
T10738 000:806 JLINK_IsHalted()  returns FALSE (0000ms, 0315ms total)
T10738 000:808 JLINK_IsHalted()  returns FALSE (0000ms, 0315ms total)
T10738 000:810 JLINK_IsHalted()  returns FALSE (0000ms, 0315ms total)
T10738 000:821 JLINK_IsHalted() -- CPU_ReadMem(2 bytes @ 0x20000000)  returns TRUE (0001ms, 0316ms total)
T10738 000:822 JLINK_ReadReg(R15 (PC))  returns 0x20000000 (0000ms, 0315ms total)
T10738 000:822 JLINK_ClrBPEx(BPHandle = 0x00000009)  returns 0x00 (0000ms, 0315ms total)
T10738 000:822 JLINK_ReadReg(R0)  returns 0x00000000 (0000ms, 0315ms total)
T10738 000:823 JLINK_WriteMem(0x20000164, 0x0400 Bytes, ...) - Data: B8 42 01 D1 40 26 17 E0 40 45 02 D1 4F F4 80 66 ... -- CPU_WriteMem(1024 bytes @ 0x20000164)  returns 0x400 (0002ms, 0317ms total)
T10738 000:825 JLINK_WriteReg(R0, 0x08001400)  returns 0x00 (0000ms, 0317ms total)
T10738 000:825 JLINK_WriteReg(R1, 0x00000400)  returns 0x00 (0000ms, 0317ms total)
T10738 000:826 JLINK_WriteReg(R2, 0x20000164)  returns 0x00 (0000ms, 0317ms total)
T10738 000:826 JLINK_WriteReg(R3, 0x00000000)  returns 0x00 (0000ms, 0317ms total)
T10738 000:826 JLINK_WriteReg(R4, 0x00000000)  returns 0x00 (0000ms, 0317ms total)
T10738 000:826 JLINK_WriteReg(R5, 0x00000000)  returns 0x00 (0000ms, 0317ms total)
T10738 000:826 JLINK_WriteReg(R6, 0x00000000)  returns 0x00 (0000ms, 0317ms total)
T10738 000:826 JLINK_WriteReg(R7, 0x00000000)  returns 0x00 (0000ms, 0317ms total)
T10738 000:826 JLINK_WriteReg(R8, 0x00000000)  returns 0x00 (0000ms, 0317ms total)
T10738 000:826 JLINK_WriteReg(R9, 0x20000160)  returns 0x00 (0000ms, 0317ms total)
T10738 000:826 JLINK_WriteReg(R10, 0x00000000)  returns 0x00 (0000ms, 0317ms total)
T10738 000:826 JLINK_WriteReg(R11, 0x00000000)  returns 0x00 (0000ms, 0317ms total)
T10738 000:826 JLINK_WriteReg(R12, 0x00000000)  returns 0x00 (0000ms, 0317ms total)
T10738 000:826 JLINK_WriteReg(R13 (SP), 0x20001000)  returns 0x00 (0000ms, 0317ms total)
T10738 000:826 JLINK_WriteReg(R14, 0x20000001)  returns 0x00 (0000ms, 0317ms total)
T10738 000:826 JLINK_WriteReg(R15 (PC), 0x200000F4)  returns 0x00 (0000ms, 0317ms total)
T10738 000:826 JLINK_WriteReg(XPSR, 0x01000000)  returns 0x00 (0000ms, 0317ms total)
T10738 000:826 JLINK_WriteReg(MSP, 0x20001000)  returns 0x00 (0000ms, 0317ms total)
T10738 000:826 JLINK_WriteReg(PSP, 0x20001000)  returns 0x00 (0000ms, 0317ms total)
T10738 000:826 JLINK_WriteReg(CFBP, 0x00000000)  returns 0x00 (0000ms, 0317ms total)
T10738 000:826 JLINK_SetBPEx(Addr = 0x20000000, Type = 0xFFFFFFF2)  returns 0x0000000A (0000ms, 0317ms total)
T10738 000:826 JLINK_Go() -- CPU_ReadMem(4 bytes @ 0xE0001000) (0001ms, 0318ms total)
T10738 000:827 JLINK_IsHalted()  returns FALSE (0000ms, 0318ms total)
T10738 000:837 JLINK_IsHalted()  returns FALSE (0000ms, 0318ms total)
T10738 000:839 JLINK_IsHalted()  returns FALSE (0000ms, 0318ms total)
T10738 000:841 JLINK_IsHalted()  returns FALSE (0000ms, 0318ms total)
T10738 000:843 JLINK_IsHalted()  returns FALSE (0000ms, 0318ms total)
T10738 000:849 JLINK_IsHalted()  returns FALSE (0000ms, 0318ms total)
T10738 000:851 JLINK_IsHalted()  returns FALSE (0000ms, 0318ms total)
T10738 000:853 JLINK_IsHalted()  returns FALSE (0000ms, 0318ms total)
T10738 000:855 JLINK_IsHalted()  returns FALSE (0000ms, 0318ms total)
T10738 000:857 JLINK_IsHalted()  returns FALSE (0000ms, 0318ms total)
T10738 000:859 JLINK_IsHalted() -- CPU_ReadMem(2 bytes @ 0x20000000)  returns TRUE (0001ms, 0319ms total)
T10738 000:860 JLINK_ReadReg(R15 (PC))  returns 0x20000000 (0000ms, 0318ms total)
T10738 000:860 JLINK_ClrBPEx(BPHandle = 0x0000000A)  returns 0x00 (0000ms, 0318ms total)
T10738 000:860 JLINK_ReadReg(R0)  returns 0x00000000 (0000ms, 0318ms total)
T10738 000:861 JLINK_WriteMem(0x20000164, 0x0400 Bytes, ...) - Data: 01 D1 04 22 0E E0 71 45 01 D1 40 22 0A E0 78 4D ... -- CPU_WriteMem(1024 bytes @ 0x20000164)  returns 0x400 (0002ms, 0320ms total)
T10738 000:864 JLINK_WriteReg(R0, 0x08001800)  returns 0x00 (0000ms, 0320ms total)
T10738 000:864 JLINK_WriteReg(R1, 0x00000400)  returns 0x00 (0000ms, 0320ms total)
T10738 000:864 JLINK_WriteReg(R2, 0x20000164)  returns 0x00 (0000ms, 0320ms total)
T10738 000:864 JLINK_WriteReg(R3, 0x00000000)  returns 0x00 (0000ms, 0320ms total)
T10738 000:864 JLINK_WriteReg(R4, 0x00000000)  returns 0x00 (0000ms, 0320ms total)
T10738 000:864 JLINK_WriteReg(R5, 0x00000000)  returns 0x00 (0000ms, 0320ms total)
T10738 000:864 JLINK_WriteReg(R6, 0x00000000)  returns 0x00 (0000ms, 0320ms total)
T10738 000:864 JLINK_WriteReg(R7, 0x00000000)  returns 0x00 (0000ms, 0320ms total)
T10738 000:864 JLINK_WriteReg(R8, 0x00000000)  returns 0x00 (0000ms, 0320ms total)
T10738 000:864 JLINK_WriteReg(R9, 0x20000160)  returns 0x00 (0000ms, 0320ms total)
T10738 000:864 JLINK_WriteReg(R10, 0x00000000)  returns 0x00 (0000ms, 0320ms total)
T10738 000:864 JLINK_WriteReg(R11, 0x00000000)  returns 0x00 (0000ms, 0320ms total)
T10738 000:864 JLINK_WriteReg(R12, 0x00000000)  returns 0x00 (0000ms, 0320ms total)
T10738 000:864 JLINK_WriteReg(R13 (SP), 0x20001000)  returns 0x00 (0000ms, 0320ms total)
T10738 000:864 JLINK_WriteReg(R14, 0x20000001)  returns 0x00 (0000ms, 0320ms total)
T10738 000:864 JLINK_WriteReg(R15 (PC), 0x200000F4)  returns 0x00 (0000ms, 0320ms total)
T10738 000:864 JLINK_WriteReg(XPSR, 0x01000000)  returns 0x00 (0000ms, 0320ms total)
T10738 000:864 JLINK_WriteReg(MSP, 0x20001000)  returns 0x00 (0000ms, 0320ms total)
T10738 000:864 JLINK_WriteReg(PSP, 0x20001000)  returns 0x00 (0000ms, 0320ms total)
T10738 000:864 JLINK_WriteReg(CFBP, 0x00000000)  returns 0x00 (0000ms, 0320ms total)
T10738 000:864 JLINK_SetBPEx(Addr = 0x20000000, Type = 0xFFFFFFF2)  returns 0x0000000B (0000ms, 0320ms total)
T10738 000:864 JLINK_Go() -- CPU_ReadMem(4 bytes @ 0xE0001000) (0001ms, 0321ms total)
T10738 000:865 JLINK_IsHalted()  returns FALSE (0000ms, 0321ms total)
T10738 000:867 JLINK_IsHalted()  returns FALSE (0000ms, 0321ms total)
T10738 000:876 JLINK_IsHalted()  returns FALSE (0000ms, 0321ms total)
T10738 000:878 JLINK_IsHalted()  returns FALSE (0000ms, 0321ms total)
T10738 000:880 JLINK_IsHalted()  returns FALSE (0000ms, 0321ms total)
T10738 000:882 JLINK_IsHalted()  returns FALSE (0000ms, 0321ms total)
T10738 000:884 JLINK_IsHalted()  returns FALSE (0000ms, 0321ms total)
T10738 000:886 JLINK_IsHalted()  returns FALSE (0000ms, 0321ms total)
T10738 000:893 JLINK_IsHalted()  returns FALSE (0000ms, 0321ms total)
T10738 000:895 JLINK_IsHalted()  returns FALSE (0000ms, 0321ms total)
T10738 000:897 JLINK_IsHalted() -- CPU_ReadMem(2 bytes @ 0x20000000)  returns TRUE (0001ms, 0322ms total)
T10738 000:898 JLINK_ReadReg(R15 (PC))  returns 0x20000000 (0000ms, 0321ms total)
T10738 000:898 JLINK_ClrBPEx(BPHandle = 0x0000000B)  returns 0x00 (0000ms, 0321ms total)
T10738 000:898 JLINK_ReadReg(R0)  returns 0x00000000 (0000ms, 0321ms total)
T10738 000:899 JLINK_WriteMem(0x20000164, 0x0400 Bytes, ...) - Data: A0 42 01 D1 02 24 0F E0 41 4C A0 42 01 D1 03 24 ... -- CPU_WriteMem(1024 bytes @ 0x20000164)  returns 0x400 (0003ms, 0324ms total)
T10738 000:902 JLINK_WriteReg(R0, 0x08001C00)  returns 0x00 (0000ms, 0324ms total)
T10738 000:902 JLINK_WriteReg(R1, 0x00000400)  returns 0x00 (0000ms, 0324ms total)
T10738 000:902 JLINK_WriteReg(R2, 0x20000164)  returns 0x00 (0000ms, 0324ms total)
T10738 000:902 JLINK_WriteReg(R3, 0x00000000)  returns 0x00 (0000ms, 0324ms total)
T10738 000:902 JLINK_WriteReg(R4, 0x00000000)  returns 0x00 (0000ms, 0324ms total)
T10738 000:902 JLINK_WriteReg(R5, 0x00000000)  returns 0x00 (0000ms, 0324ms total)
T10738 000:902 JLINK_WriteReg(R6, 0x00000000)  returns 0x00 (0000ms, 0324ms total)
T10738 000:902 JLINK_WriteReg(R7, 0x00000000)  returns 0x00 (0000ms, 0324ms total)
T10738 000:902 JLINK_WriteReg(R8, 0x00000000)  returns 0x00 (0000ms, 0324ms total)
T10738 000:902 JLINK_WriteReg(R9, 0x20000160)  returns 0x00 (0000ms, 0324ms total)
T10738 000:902 JLINK_WriteReg(R10, 0x00000000)  returns 0x00 (0000ms, 0324ms total)
T10738 000:902 JLINK_WriteReg(R11, 0x00000000)  returns 0x00 (0000ms, 0324ms total)
T10738 000:902 JLINK_WriteReg(R12, 0x00000000)  returns 0x00 (0000ms, 0324ms total)
T10738 000:902 JLINK_WriteReg(R13 (SP), 0x20001000)  returns 0x00 (0000ms, 0324ms total)
T10738 000:902 JLINK_WriteReg(R14, 0x20000001)  returns 0x00 (0000ms, 0324ms total)
T10738 000:902 JLINK_WriteReg(R15 (PC), 0x200000F4)  returns 0x00 (0000ms, 0324ms total)
T10738 000:902 JLINK_WriteReg(XPSR, 0x01000000)  returns 0x00 (0000ms, 0324ms total)
T10738 000:902 JLINK_WriteReg(MSP, 0x20001000)  returns 0x00 (0000ms, 0324ms total)
T10738 000:902 JLINK_WriteReg(PSP, 0x20001000)  returns 0x00 (0000ms, 0324ms total)
T10738 000:902 JLINK_WriteReg(CFBP, 0x00000000)  returns 0x00 (0000ms, 0324ms total)
T10738 000:902 JLINK_SetBPEx(Addr = 0x20000000, Type = 0xFFFFFFF2)  returns 0x0000000C (0000ms, 0324ms total)
T10738 000:902 JLINK_Go() -- CPU_ReadMem(4 bytes @ 0xE0001000) (0001ms, 0325ms total)
T10738 000:903 JLINK_IsHalted()  returns FALSE (0000ms, 0325ms total)
T10738 000:911 JLINK_IsHalted()  returns FALSE (0000ms, 0325ms total)
T10738 000:913 JLINK_IsHalted()  returns FALSE (0000ms, 0325ms total)
T10738 000:915 JLINK_IsHalted()  returns FALSE (0000ms, 0325ms total)
T10738 000:917 JLINK_IsHalted()  returns FALSE (0000ms, 0325ms total)
T10738 000:919 JLINK_IsHalted()  returns FALSE (0000ms, 0325ms total)
T10738 000:921 JLINK_IsHalted()  returns FALSE (0000ms, 0325ms total)
T10738 000:929 JLINK_IsHalted()  returns FALSE (0000ms, 0325ms total)
T10738 000:931 JLINK_IsHalted()  returns FALSE (0000ms, 0325ms total)
T10738 000:933 JLINK_IsHalted()  returns FALSE (0000ms, 0325ms total)
T10738 000:935 JLINK_IsHalted() -- CPU_ReadMem(2 bytes @ 0x20000000)  returns TRUE (0001ms, 0326ms total)
T10738 000:936 JLINK_ReadReg(R15 (PC))  returns 0x20000000 (0000ms, 0325ms total)
T10738 000:936 JLINK_ClrBPEx(BPHandle = 0x0000000C)  returns 0x00 (0000ms, 0325ms total)
T10738 000:936 JLINK_ReadReg(R0)  returns 0x00000000 (0000ms, 0325ms total)
T10738 000:939 JLINK_WriteMem(0x20000164, 0x0400 Bytes, ...) - Data: 01 00 28 62 E0 68 41 F2 88 3B 88 B1 FE F7 1E FA ... -- CPU_WriteMem(1024 bytes @ 0x20000164)  returns 0x400 (0002ms, 0327ms total)
T10738 000:941 JLINK_WriteReg(R0, 0x08002000)  returns 0x00 (0000ms, 0327ms total)
T10738 000:941 JLINK_WriteReg(R1, 0x00000400)  returns 0x00 (0000ms, 0327ms total)
T10738 000:941 JLINK_WriteReg(R2, 0x20000164)  returns 0x00 (0000ms, 0327ms total)
T10738 000:941 JLINK_WriteReg(R3, 0x00000000)  returns 0x00 (0000ms, 0327ms total)
T10738 000:941 JLINK_WriteReg(R4, 0x00000000)  returns 0x00 (0000ms, 0327ms total)
T10738 000:941 JLINK_WriteReg(R5, 0x00000000)  returns 0x00 (0001ms, 0328ms total)
T10738 000:942 JLINK_WriteReg(R6, 0x00000000)  returns 0x00 (0000ms, 0328ms total)
T10738 000:942 JLINK_WriteReg(R7, 0x00000000)  returns 0x00 (0000ms, 0328ms total)
T10738 000:942 JLINK_WriteReg(R8, 0x00000000)  returns 0x00 (0000ms, 0328ms total)
T10738 000:942 JLINK_WriteReg(R9, 0x20000160)  returns 0x00 (0000ms, 0328ms total)
T10738 000:942 JLINK_WriteReg(R10, 0x00000000)  returns 0x00 (0000ms, 0328ms total)
T10738 000:942 JLINK_WriteReg(R11, 0x00000000)  returns 0x00 (0000ms, 0328ms total)
T10738 000:942 JLINK_WriteReg(R12, 0x00000000)  returns 0x00 (0000ms, 0328ms total)
T10738 000:942 JLINK_WriteReg(R13 (SP), 0x20001000)  returns 0x00 (0000ms, 0328ms total)
T10738 000:942 JLINK_WriteReg(R14, 0x20000001)  returns 0x00 (0000ms, 0328ms total)
T10738 000:942 JLINK_WriteReg(R15 (PC), 0x200000F4)  returns 0x00 (0000ms, 0328ms total)
T10738 000:942 JLINK_WriteReg(XPSR, 0x01000000)  returns 0x00 (0000ms, 0328ms total)
T10738 000:942 JLINK_WriteReg(MSP, 0x20001000)  returns 0x00 (0000ms, 0328ms total)
T10738 000:942 JLINK_WriteReg(PSP, 0x20001000)  returns 0x00 (0000ms, 0328ms total)
T10738 000:942 JLINK_WriteReg(CFBP, 0x00000000)  returns 0x00 (0000ms, 0328ms total)
T10738 000:942 JLINK_SetBPEx(Addr = 0x20000000, Type = 0xFFFFFFF2)  returns 0x0000000D (0000ms, 0328ms total)
T10738 000:942 JLINK_Go() -- CPU_ReadMem(4 bytes @ 0xE0001000) (0001ms, 0329ms total)
T10738 000:943 JLINK_IsHalted()  returns FALSE (0000ms, 0329ms total)
T10738 000:951 JLINK_IsHalted()  returns FALSE (0000ms, 0329ms total)
T10738 000:953 JLINK_IsHalted()  returns FALSE (0000ms, 0329ms total)
T10738 000:960 JLINK_IsHalted()  returns FALSE (0000ms, 0329ms total)
T10738 000:962 JLINK_IsHalted()  returns FALSE (0000ms, 0329ms total)
T10738 000:963 JLINK_IsHalted()  returns FALSE (0000ms, 0329ms total)
T10738 000:965 JLINK_IsHalted()  returns FALSE (0000ms, 0329ms total)
T10738 000:967 JLINK_IsHalted()  returns FALSE (0000ms, 0329ms total)
T10738 000:974 JLINK_IsHalted() -- CPU_ReadMem(2 bytes @ 0x20000000)  returns TRUE (0001ms, 0330ms total)
T10738 000:975 JLINK_ReadReg(R15 (PC))  returns 0x20000000 (0000ms, 0329ms total)
T10738 000:975 JLINK_ClrBPEx(BPHandle = 0x0000000D)  returns 0x00 (0000ms, 0329ms total)
T10738 000:975 JLINK_ReadReg(R0)  returns 0x00000000 (0000ms, 0329ms total)
T10738 000:976 JLINK_WriteMem(0x20000164, 0x0400 Bytes, ...) - Data: 80 20 A0 72 10 BD 00 00 00 09 3D 00 00 20 02 40 ... -- CPU_WriteMem(1024 bytes @ 0x20000164)  returns 0x400 (0002ms, 0331ms total)
T10738 000:978 JLINK_WriteReg(R0, 0x08002400)  returns 0x00 (0000ms, 0331ms total)
T10738 000:978 JLINK_WriteReg(R1, 0x00000400)  returns 0x00 (0000ms, 0331ms total)
T10738 000:978 JLINK_WriteReg(R2, 0x20000164)  returns 0x00 (0000ms, 0331ms total)
T10738 000:978 JLINK_WriteReg(R3, 0x00000000)  returns 0x00 (0000ms, 0331ms total)
T10738 000:978 JLINK_WriteReg(R4, 0x00000000)  returns 0x00 (0000ms, 0331ms total)
T10738 000:978 JLINK_WriteReg(R5, 0x00000000)  returns 0x00 (0000ms, 0331ms total)
T10738 000:978 JLINK_WriteReg(R6, 0x00000000)  returns 0x00 (0000ms, 0331ms total)
T10738 000:978 JLINK_WriteReg(R7, 0x00000000)  returns 0x00 (0000ms, 0331ms total)
T10738 000:978 JLINK_WriteReg(R8, 0x00000000)  returns 0x00 (0001ms, 0332ms total)
T10738 000:979 JLINK_WriteReg(R9, 0x20000160)  returns 0x00 (0000ms, 0332ms total)
T10738 000:979 JLINK_WriteReg(R10, 0x00000000)  returns 0x00 (0000ms, 0332ms total)
T10738 000:979 JLINK_WriteReg(R11, 0x00000000)  returns 0x00 (0000ms, 0332ms total)
T10738 000:979 JLINK_WriteReg(R12, 0x00000000)  returns 0x00 (0000ms, 0332ms total)
T10738 000:979 JLINK_WriteReg(R13 (SP), 0x20001000)  returns 0x00 (0000ms, 0332ms total)
T10738 000:979 JLINK_WriteReg(R14, 0x20000001)  returns 0x00 (0000ms, 0332ms total)
T10738 000:979 JLINK_WriteReg(R15 (PC), 0x200000F4)  returns 0x00 (0000ms, 0332ms total)
T10738 000:979 JLINK_WriteReg(XPSR, 0x01000000)  returns 0x00 (0000ms, 0332ms total)
T10738 000:979 JLINK_WriteReg(MSP, 0x20001000)  returns 0x00 (0000ms, 0332ms total)
T10738 000:979 JLINK_WriteReg(PSP, 0x20001000)  returns 0x00 (0000ms, 0332ms total)
T10738 000:979 JLINK_WriteReg(CFBP, 0x00000000)  returns 0x00 (0000ms, 0332ms total)
T10738 000:979 JLINK_SetBPEx(Addr = 0x20000000, Type = 0xFFFFFFF2)  returns 0x0000000E (0000ms, 0332ms total)
T10738 000:979 JLINK_Go() -- CPU_ReadMem(4 bytes @ 0xE0001000) (0001ms, 0333ms total)
T10738 000:980 JLINK_IsHalted()  returns FALSE (0000ms, 0333ms total)
T10738 000:982 JLINK_IsHalted()  returns FALSE (0000ms, 0333ms total)
T10738 000:984 JLINK_IsHalted()  returns FALSE (0000ms, 0333ms total)
T10738 000:989 JLINK_IsHalted()  returns FALSE (0000ms, 0333ms total)
T10738 000:991 JLINK_IsHalted()  returns FALSE (0000ms, 0333ms total)
T10738 000:993 JLINK_IsHalted()  returns FALSE (0000ms, 0333ms total)
T10738 000:995 JLINK_IsHalted()  returns FALSE (0000ms, 0333ms total)
T10738 000:997 JLINK_IsHalted()  returns FALSE (0000ms, 0333ms total)
T10738 000:999 JLINK_IsHalted()  returns FALSE (0000ms, 0333ms total)
T10738 001:001 JLINK_IsHalted()  returns FALSE (0000ms, 0333ms total)
T10738 001:007 JLINK_IsHalted()  returns FALSE (0000ms, 0333ms total)
T10738 001:009 JLINK_IsHalted()  returns FALSE (0000ms, 0333ms total)
T10738 001:011 JLINK_IsHalted()  returns FALSE (0000ms, 0333ms total)
T10738 001:013 JLINK_IsHalted() -- CPU_ReadMem(2 bytes @ 0x20000000)  returns TRUE (0001ms, 0334ms total)
T10738 001:014 JLINK_ReadReg(R15 (PC))  returns 0x20000000 (0000ms, 0333ms total)
T10738 001:014 JLINK_ClrBPEx(BPHandle = 0x0000000E)  returns 0x00 (0000ms, 0333ms total)
T10738 001:014 JLINK_ReadReg(R0)  returns 0x00000000 (0000ms, 0333ms total)
T10738 001:015 JLINK_WriteMem(0x20000164, 0x0400 Bytes, ...) - Data: 20 6B 80 1C 20 63 E0 8E 40 1E E0 86 00 25 20 68 ... -- CPU_WriteMem(1024 bytes @ 0x20000164)  returns 0x400 (0002ms, 0335ms total)
T10738 001:017 JLINK_WriteReg(R0, 0x08002800)  returns 0x00 (0000ms, 0335ms total)
